
T3F44 000:100 SEGGER J-Link V6.14b Log File (0001ms, 0034ms total)
T3F44 000:100 DLL Compiled: Mar  9 2017 08:46:04 (0001ms, 0034ms total)
T3F44 000:100 Logging started @ 2021-05-29 12:29 (0001ms, 0034ms total)
T3F44 000:101 JLINK_SetWarnOutHandler(...) (0000ms, 0034ms total)
T3F44 000:101 JLINK_OpenEx(...)
Firmware: J-Link ARM-OB STM32 compiled Aug 22 2012 19:52:04
Hardware: V7.00
S/N: 20200909
Feature(s): RDI,FlashDL,FlashBP,JFlash,GDBFullWEBSRV Webserver running on local port 19080 (0019ms, 0053ms total)
T3F44 000:101   returns O.K. (0019ms, 0053ms total)
T3F44 000:120 JLINK_SetErrorOutHandler(...) (0000ms, 0053ms total)
T3F44 000:120 JLINK_ExecCommand("ProjectFile = "C:\C_Robomaster\·ÖÇøÈü5.29.0\SuperPower\Project\JLinkSettings.ini"", ...). Device "CORTEX-M3" selected.  returns 0x00 (0089ms, 0142ms total)
T3F44 000:216 JLINK_ExecCommand("Device = STM32F105RB", ...). Device "STM32F105RB" selected.  returns 0x00 (0004ms, 0146ms total)
T3F44 000:220 JLINK_ExecCommand("DisableConnectionTimeout", ...).   returns 0x01 (0000ms, 0146ms total)
T3F44 000:220 JLINK_GetHardwareVersion()  returns 0x11170 (0000ms, 0146ms total)
T3F44 000:220 JLINK_GetDLLVersion()  returns 61402 (0000ms, 0146ms total)
T3F44 000:220 JLINK_GetFirmwareString(...) (0000ms, 0146ms total)
T3F44 000:229 JLINK_GetDLLVersion()  returns 61402 (0000ms, 0146ms total)
T3F44 000:229 JLINK_GetCompileDateTime() (0000ms, 0146ms total)
T3F44 000:233 JLINK_GetFirmwareString(...) (0000ms, 0146ms total)
T3F44 000:235 JLINK_GetHardwareVersion()  returns 0x11170 (0000ms, 0146ms total)
T3F44 000:245 JLINK_TIF_Select(JLINKARM_TIF_SWD)  returns 0x00 (0002ms, 0148ms total)
T3F44 000:247 JLINK_SetSpeed(5000) (0000ms, 0148ms total)
T3F44 000:247 JLINK_GetId() >0x108 TIF>Found SWD-DP with ID 0x1BA01477 >0x0D TIF> >0x28 TIF> >0x0D TIF> >0x28 TIF> >0x0D TIF> >0x28 TIF> >0x0D TIF> >0x28 TIF> >0x0D TIF> >0x21 TIF> >0x0D TIF> >0x28 TIF> >0x0D TIF> >0x28 TIF> >0x0D TIF> >0x28 TIF> >0x0D TIF> >0x21 TIF> >0x0D TIF> >0x21 TIF> >0x0D TIF> >0x28 TIF> >0x0D TIF> >0x21 TIF> >0x0D TIF> >0x21 TIF> >0x0D TIF> >0x28 TIF> >0x0D TIF> >0x28 TIF> >0x0D TIF> >0x28 TIF> >0x0D TIF> >0x21 TIF> >0x0D TIF> >0x21 TIF> >0x0D TIF> >0x28 TIF> >0x0D TIF>
 >0x21 TIF> >0x0D TIF> >0x21 TIF> >0x0D TIF> >0x28 TIF> >0x0D TIF> >0x21 TIF> >0x0D TIF> >0x21 TIF> >0x0D TIF> >0x28 TIF> >0x0D TIF> >0x21 TIF> >0x0D TIF> >0x21 TIF> >0x0D TIF> >0x28 TIF> >0x0D TIF> >0x21 TIF> >0x0D TIF> >0x21 TIF> >0x108 TIF>Found SWD-DP with ID 0x1BA01477 >0x0D TIF> >0x28 TIF> >0x0D TIF> >0x28 TIF> >0x0D TIF> >0x28 TIF> >0x0D TIF> >0x28 TIF> >0x0D TIF> >0x21 TIF> >0x0D TIF> >0x28 TIF> >0x0D TIF> >0x28 TIF> >0x0D TIF> >0x21 TIF> >0x0D TIF> >0x21 TIF> >0x0D TIF> >0x21 TIF>
AP-IDR: 0x14770011, Type: AHB-APAHB-AP ROM: 0xE00FF000 (Base addr. of first ROM table) >0x0D TIF> >0x28 TIF> >0x0D TIF> >0x28 TIF> >0x0D TIF> >0x28 TIF> >0x0D TIF> >0x21 TIF> >0x0D TIF> >0x21 TIF> >0x0D TIF> >0x28 TIF> >0x0D TIF> >0x21 TIF> >0x0D TIF> >0x21 TIF>Found Cortex-M3 r1p1, Little endian. -- CPU_ReadMem(4 bytes @ 0xE000EDF0) -- CPU_WriteMem(4 bytes @ 0xE000EDF0) -- CPU_ReadMem(4 bytes @ 0xE0002000)FPUnit: 6 code (BP) slots and 2 literal slots -- CPU_ReadMem(4 bytes @ 0xE000EDFC)
 -- CPU_WriteMem(4 bytes @ 0xE000EDFC) -- CPU_ReadMem(4 bytes @ 0xE0001000) -- CPU_WriteMem(4 bytes @ 0xE0001000) -- CPU_ReadMem(4 bytes @ 0xE000ED88) -- CPU_WriteMem(4 bytes @ 0xE000ED88) -- CPU_ReadMem(4 bytes @ 0xE000ED88) -- CPU_WriteMem(4 bytes @ 0xE000ED88)CoreSight components:ROMTbl 0 @ E00FF000 -- CPU_ReadMem(16 bytes @ 0xE00FF000) -- CPU_ReadMem(16 bytes @ 0xE000EFF0) -- CPU_ReadMem(16 bytes @ 0xE000EFE0)ROMTbl 0 [0]: FFF0F000, CID: B105E00D, PID: 001BB000 SCS
 -- CPU_ReadMem(16 bytes @ 0xE0001FF0) -- CPU_ReadMem(16 bytes @ 0xE0001FE0)ROMTbl 0 [1]: FFF02000, CID: B105E00D, PID: 001BB002 DWT -- CPU_ReadMem(16 bytes @ 0xE0002FF0) -- CPU_ReadMem(16 bytes @ 0xE0002FE0)ROMTbl 0 [2]: FFF03000, CID: B105E00D, PID: 000BB003 FPB -- CPU_ReadMem(16 bytes @ 0xE0000FF0) -- CPU_ReadMem(16 bytes @ 0xE0000FE0)ROMTbl 0 [3]: FFF01000, CID: B105E00D, PID: 001BB001 ITM -- CPU_ReadMem(16 bytes @ 0xE00FF010) -- CPU_ReadMem(16 bytes @ 0xE0040FF0)
 -- CPU_ReadMem(16 bytes @ 0xE0040FE0)ROMTbl 0 [4]: FFF41000, CID: B105900D, PID: 001BB923 TPIU-Lite -- CPU_ReadMem(16 bytes @ 0xE0041FF0) -- CPU_ReadMem(16 bytes @ 0xE0041FE0)ROMTbl 0 [5]: FFF42000, CID: B105900D, PID: 101BB924 ETM-M3 >0x0D TIF> >0x21 TIF>  returns 0x1BA01477 (0129ms, 0277ms total)
T3F44 000:376 JLINK_GetDLLVersion()  returns 61402 (0000ms, 0277ms total)
T3F44 000:376 JLINK_CORE_GetFound()  returns 0x30000FF (0000ms, 0277ms total)
T3F44 000:376 JLINK_GetDebugInfo(0x100 = JLINKARM_ROM_TABLE_ADDR_INDEX) -- Value=0xE00FF000  returns 0x00 (0000ms, 0277ms total)
T3F44 000:379 JLINK_GetDebugInfo(0x100 = JLINKARM_ROM_TABLE_ADDR_INDEX) -- Value=0xE00FF000  returns 0x00 (0000ms, 0277ms total)
T3F44 000:379 JLINK_GetDebugInfo(0x101 = JLINKARM_DEBUG_INFO_ETM_ADDR_INDEX) -- Value=0xE0041000  returns 0x00 (0000ms, 0277ms total)
T3F44 000:379 JLINK_GetDebugInfo(0x102 = JLINKARM_DEBUG_INFO_MTB_ADDR_INDEX) -- Value=0x00000000  returns 0x00 (0000ms, 0277ms total)
T3F44 000:379 JLINK_GetDebugInfo(0x103 = JLINKARM_DEBUG_INFO_TPIU_ADDR_INDEX) -- Value=0xE0040000  returns 0x00 (0000ms, 0277ms total)
T3F44 000:379 JLINK_GetDebugInfo(0x104 = JLINKARM_DEBUG_INFO_ITM_ADDR_INDEX) -- Value=0xE0000000  returns 0x00 (0000ms, 0277ms total)
T3F44 000:379 JLINK_GetDebugInfo(0x105 = JLINKARM_DEBUG_INFO_DWT_ADDR_INDEX) -- Value=0xE0001000  returns 0x00 (0000ms, 0277ms total)
T3F44 000:379 JLINK_GetDebugInfo(0x106 = JLINKARM_DEBUG_INFO_FPB_ADDR_INDEX) -- Value=0xE0002000  returns 0x00 (0000ms, 0277ms total)
T3F44 000:379 JLINK_GetDebugInfo(0x107 = JLINKARM_DEBUG_INFO_NVIC_ADDR_INDEX) -- Value=0xE000E000  returns 0x00 (0000ms, 0277ms total)
T3F44 000:379 JLINK_GetDebugInfo(0x10C = JLINKARM_DEBUG_INFO_DBG_ADDR_INDEX) -- Value=0xE000EDF0  returns 0x00 (0000ms, 0277ms total)
T3F44 000:379 JLINK_ReadMemU32(0xE000ED00, 0x0001 Items, ...) -- CPU is running -- CPU_ReadMem(4 bytes @ 0xE000ED00) - Data: 31 C2 1F 41  returns 0x01 (0002ms, 0279ms total)
T3F44 000:381 JLINK_SetResetType(JLINKARM_CM3_RESET_TYPE_NORMAL)  returns JLINKARM_CM3_RESET_TYPE_NORMAL (0000ms, 0279ms total)
T3F44 000:381 JLINK_Reset() -- CPU is running -- CPU_WriteMem(4 bytes @ 0xE000EDF0) -- CPU is running -- CPU_WriteMem(4 bytes @ 0xE000EDFC) >0x35 TIF> -- CPU is running -- CPU_WriteMem(4 bytes @ 0xE000ED0C) >0x0D TIF> >0x28 TIF> -- CPU is running -- CPU_ReadMem(4 bytes @ 0xE000EDF0) -- CPU is running -- CPU_ReadMem(4 bytes @ 0xE000EDF0) -- CPU is running -- CPU_WriteMem(4 bytes @ 0xE000EDF0) -- CPU is running -- CPU_WriteMem(4 bytes @ 0xE000EDFC) -- CPU is running -- CPU_ReadMem(4 bytes @ 0xE000EDF0)
 -- CPU_WriteMem(4 bytes @ 0xE0002000) -- CPU_ReadMem(4 bytes @ 0xE000EDFC) -- CPU_ReadMem(4 bytes @ 0xE0001000) (0073ms, 0352ms total)
T3F44 000:455 JLINK_Halt()  returns 0x00 (0000ms, 0352ms total)
T3F44 000:455 JLINK_IsHalted()  returns TRUE (0000ms, 0352ms total)
T3F44 000:455 JLINK_ReadMemU32(0xE000EDF0, 0x0001 Items, ...) -- CPU_ReadMem(4 bytes @ 0xE000EDF0) - Data: 03 00 03 00  returns 0x01 (0000ms, 0352ms total)
T3F44 000:455 JLINK_WriteU32(0xE000EDF0, 0xA05F0003) -- CPU_WriteMem(4 bytes @ 0xE000EDF0)  returns 0x00 (0001ms, 0353ms total)
T3F44 000:456 JLINK_WriteU32(0xE000EDFC, 0x01000000) -- CPU_WriteMem(4 bytes @ 0xE000EDFC)  returns 0x00 (0001ms, 0354ms total)
T3F44 000:470 JLINK_GetHWStatus(...)  returns 0x00 (0001ms, 0355ms total)
T3F44 000:479 JLINK_GetNumBPUnits(Type = 0xFFFFFF00)  returns 0x06 (0000ms, 0355ms total)
T3F44 000:479 JLINK_GetNumBPUnits(Type = 0xF0)  returns 0x2000 (0000ms, 0355ms total)
T3F44 000:479 JLINK_GetNumWPUnits()  returns 0x04 (0000ms, 0355ms total)
T3F44 000:486 JLINK_GetSpeed()  returns 0xFA0 (0000ms, 0355ms total)
T3F44 000:491 JLINK_ReadMemU32(0xE000E004, 0x0001 Items, ...) -- CPU_ReadMem(4 bytes @ 0xE000E004) - Data: 02 00 00 00  returns 0x01 (0001ms, 0356ms total)
T3F44 000:492 JLINK_ReadMemU32(0xE000E004, 0x0001 Items, ...) -- CPU_ReadMem(4 bytes @ 0xE000E004) - Data: 02 00 00 00  returns 0x01 (0001ms, 0357ms total)
T3F44 000:493 JLINK_WriteMem(0xE0001000, 0x001C Bytes, ...) - Data: 01 00 00 00 00 00 00 00 00 00 00 00 00 00 00 00 ... -- CPU_WriteMem(28 bytes @ 0xE0001000)  returns 0x1C (0001ms, 0358ms total)
T3F44 000:494 JLINK_ReadMem (0xE0001000, 0x001C Bytes, ...) -- CPU_ReadMem(28 bytes @ 0xE0001000) - Data: 01 00 00 40 00 00 00 00 00 00 00 00 00 00 00 00 ...  returns 0x00 (0001ms, 0359ms total)
T3F44 000:495 JLINK_Halt()  returns 0x00 (0000ms, 0359ms total)
T3F44 000:495 JLINK_IsHalted()  returns TRUE (0000ms, 0359ms total)
T3F44 000:499 JLINK_WriteMem(0x20000000, 0x0164 Bytes, ...) - Data: 00 BE 0A E0 0D 78 2D 06 68 40 08 24 40 00 00 D3 ... -- CPU_WriteMem(356 bytes @ 0x20000000)  returns 0x164 (0004ms, 0363ms total)
T3F44 000:503 JLINK_WriteReg(R0, 0x08000000)  returns 0x00 (0000ms, 0363ms total)
T3F44 000:503 JLINK_WriteReg(R1, 0x00B71B00)  returns 0x00 (0000ms, 0363ms total)
T3F44 000:503 JLINK_WriteReg(R2, 0x00000001)  returns 0x00 (0001ms, 0364ms total)
T3F44 000:504 JLINK_WriteReg(R3, 0x00000000)  returns 0x00 (0000ms, 0364ms total)
T3F44 000:504 JLINK_WriteReg(R4, 0x00000000)  returns 0x00 (0000ms, 0364ms total)
T3F44 000:504 JLINK_WriteReg(R5, 0x00000000)  returns 0x00 (0000ms, 0364ms total)
T3F44 000:504 JLINK_WriteReg(R6, 0x00000000)  returns 0x00 (0000ms, 0364ms total)
T3F44 000:504 JLINK_WriteReg(R7, 0x00000000)  returns 0x00 (0000ms, 0364ms total)
T3F44 000:504 JLINK_WriteReg(R8, 0x00000000)  returns 0x00 (0000ms, 0364ms total)
T3F44 000:504 JLINK_WriteReg(R9, 0x20000160)  returns 0x00 (0000ms, 0364ms total)
T3F44 000:504 JLINK_WriteReg(R10, 0x00000000)  returns 0x00 (0000ms, 0364ms total)
T3F44 000:504 JLINK_WriteReg(R11, 0x00000000)  returns 0x00 (0000ms, 0364ms total)
T3F44 000:504 JLINK_WriteReg(R12, 0x00000000)  returns 0x00 (0000ms, 0364ms total)
T3F44 000:504 JLINK_WriteReg(R13 (SP), 0x20001000)  returns 0x00 (0000ms, 0364ms total)
T3F44 000:504 JLINK_WriteReg(R14, 0x20000001)  returns 0x00 (0000ms, 0364ms total)
T3F44 000:504 JLINK_WriteReg(R15 (PC), 0x20000038)  returns 0x00 (0000ms, 0364ms total)
T3F44 000:504 JLINK_WriteReg(XPSR, 0x01000000)  returns 0x00 (0000ms, 0364ms total)
T3F44 000:504 JLINK_WriteReg(MSP, 0x20001000)  returns 0x00 (0000ms, 0364ms total)
T3F44 000:504 JLINK_WriteReg(PSP, 0x20001000)  returns 0x00 (0000ms, 0364ms total)
T3F44 000:504 JLINK_WriteReg(CFBP, 0x00000000)  returns 0x00 (0000ms, 0364ms total)
T3F44 000:504 JLINK_SetBPEx(Addr = 0x20000000, Type = 0xFFFFFFF2) -- CPU_ReadMem(2 bytes @ 0x20000000)  returns 0x00000001 (0001ms, 0365ms total)
T3F44 000:505 JLINK_Go() -- CPU_WriteMem(2 bytes @ 0x20000000) -- CPU_ReadMem(4 bytes @ 0xE0001000) -- CPU_WriteMem(4 bytes @ 0xE0002008) -- CPU_WriteMem(4 bytes @ 0xE000200C) -- CPU_WriteMem(4 bytes @ 0xE0002010) -- CPU_WriteMem(4 bytes @ 0xE0002014) -- CPU_WriteMem(4 bytes @ 0xE0002018) -- CPU_WriteMem(4 bytes @ 0xE000201C) -- CPU_WriteMem(4 bytes @ 0xE0001004) (0008ms, 0373ms total)
T3F44 000:514 JLINK_IsHalted() -- CPU_ReadMem(2 bytes @ 0x20000000)  returns TRUE (0004ms, 0377ms total)
T3F44 000:518 JLINK_ReadReg(R15 (PC))  returns 0x20000000 (0000ms, 0373ms total)
T3F44 000:518 JLINK_ClrBPEx(BPHandle = 0x00000001)  returns 0x00 (0000ms, 0373ms total)
T3F44 000:518 JLINK_ReadReg(R0)  returns 0x00000000 (0000ms, 0373ms total)
T3F44 000:519 JLINK_WriteReg(R0, 0x08000000)  returns 0x00 (0000ms, 0373ms total)
T3F44 000:519 JLINK_WriteReg(R1, 0x00B71B00)  returns 0x00 (0000ms, 0373ms total)
T3F44 000:519 JLINK_WriteReg(R2, 0x00000001)  returns 0x00 (0000ms, 0373ms total)
T3F44 000:519 JLINK_WriteReg(R3, 0x00000000)  returns 0x00 (0000ms, 0373ms total)
T3F44 000:519 JLINK_WriteReg(R4, 0x00000000)  returns 0x00 (0000ms, 0373ms total)
T3F44 000:519 JLINK_WriteReg(R5, 0x00000000)  returns 0x00 (0000ms, 0373ms total)
T3F44 000:519 JLINK_WriteReg(R6, 0x00000000)  returns 0x00 (0000ms, 0373ms total)
T3F44 000:519 JLINK_WriteReg(R7, 0x00000000)  returns 0x00 (0000ms, 0373ms total)
T3F44 000:519 JLINK_WriteReg(R8, 0x00000000)  returns 0x00 (0000ms, 0373ms total)
T3F44 000:519 JLINK_WriteReg(R9, 0x20000160)  returns 0x00 (0000ms, 0373ms total)
T3F44 000:519 JLINK_WriteReg(R10, 0x00000000)  returns 0x00 (0000ms, 0373ms total)
T3F44 000:519 JLINK_WriteReg(R11, 0x00000000)  returns 0x00 (0000ms, 0373ms total)
T3F44 000:519 JLINK_WriteReg(R12, 0x00000000)  returns 0x00 (0001ms, 0374ms total)
T3F44 000:520 JLINK_WriteReg(R13 (SP), 0x20001000)  returns 0x00 (0000ms, 0374ms total)
T3F44 000:520 JLINK_WriteReg(R14, 0x20000001)  returns 0x00 (0000ms, 0374ms total)
T3F44 000:520 JLINK_WriteReg(R15 (PC), 0x2000007C)  returns 0x00 (0000ms, 0374ms total)
T3F44 000:520 JLINK_WriteReg(XPSR, 0x01000000)  returns 0x00 (0000ms, 0374ms total)
T3F44 000:520 JLINK_WriteReg(MSP, 0x20001000)  returns 0x00 (0000ms, 0374ms total)
T3F44 000:520 JLINK_WriteReg(PSP, 0x20001000)  returns 0x00 (0000ms, 0374ms total)
T3F44 000:520 JLINK_WriteReg(CFBP, 0x00000000)  returns 0x00 (0000ms, 0374ms total)
T3F44 000:520 JLINK_SetBPEx(Addr = 0x20000000, Type = 0xFFFFFFF2)  returns 0x00000002 (0000ms, 0374ms total)
T3F44 000:520 JLINK_Go() -- CPU_ReadMem(4 bytes @ 0xE0001000) (0003ms, 0377ms total)
T3F44 000:523 JLINK_IsHalted()  returns FALSE (0000ms, 0377ms total)
T3F44 000:580 JLINK_IsHalted() -- CPU_ReadMem(2 bytes @ 0x20000000)  returns TRUE (0004ms, 0381ms total)
T3F44 000:584 JLINK_ReadReg(R15 (PC))  returns 0x20000000 (0000ms, 0377ms total)
T3F44 000:584 JLINK_ClrBPEx(BPHandle = 0x00000002)  returns 0x00 (0000ms, 0377ms total)
T3F44 000:584 JLINK_ReadReg(R0)  returns 0x00000000 (0001ms, 0378ms total)
T3F44 000:638 JLINK_WriteReg(R0, 0x00000001)  returns 0x00 (0000ms, 0378ms total)
T3F44 000:638 JLINK_WriteReg(R1, 0x00B71B00)  returns 0x00 (0001ms, 0379ms total)
T3F44 000:639 JLINK_WriteReg(R2, 0x00000001)  returns 0x00 (0000ms, 0379ms total)
T3F44 000:639 JLINK_WriteReg(R3, 0x00000000)  returns 0x00 (0000ms, 0379ms total)
T3F44 000:639 JLINK_WriteReg(R4, 0x00000000)  returns 0x00 (0000ms, 0379ms total)
T3F44 000:639 JLINK_WriteReg(R5, 0x00000000)  returns 0x00 (0000ms, 0379ms total)
T3F44 000:639 JLINK_WriteReg(R6, 0x00000000)  returns 0x00 (0000ms, 0379ms total)
T3F44 000:639 JLINK_WriteReg(R7, 0x00000000)  returns 0x00 (0000ms, 0379ms total)
T3F44 000:639 JLINK_WriteReg(R8, 0x00000000)  returns 0x00 (0000ms, 0379ms total)
T3F44 000:639 JLINK_WriteReg(R9, 0x20000160)  returns 0x00 (0000ms, 0379ms total)
T3F44 000:639 JLINK_WriteReg(R10, 0x00000000)  returns 0x00 (0000ms, 0379ms total)
T3F44 000:639 JLINK_WriteReg(R11, 0x00000000)  returns 0x00 (0000ms, 0379ms total)
T3F44 000:639 JLINK_WriteReg(R12, 0x00000000)  returns 0x00 (0000ms, 0379ms total)
T3F44 000:639 JLINK_WriteReg(R13 (SP), 0x20001000)  returns 0x00 (0000ms, 0379ms total)
T3F44 000:639 JLINK_WriteReg(R14, 0x20000001)  returns 0x00 (0000ms, 0379ms total)
T3F44 000:639 JLINK_WriteReg(R15 (PC), 0x2000006A)  returns 0x00 (0000ms, 0379ms total)
T3F44 000:639 JLINK_WriteReg(XPSR, 0x01000000)  returns 0x00 (0000ms, 0379ms total)
T3F44 000:639 JLINK_WriteReg(MSP, 0x20001000)  returns 0x00 (0000ms, 0379ms total)
T3F44 000:639 JLINK_WriteReg(PSP, 0x20001000)  returns 0x00 (0000ms, 0379ms total)
T3F44 000:639 JLINK_WriteReg(CFBP, 0x00000000)  returns 0x00 (0000ms, 0379ms total)
T3F44 000:639 JLINK_SetBPEx(Addr = 0x20000000, Type = 0xFFFFFFF2)  returns 0x00000003 (0000ms, 0379ms total)
T3F44 000:639 JLINK_Go() -- CPU_ReadMem(4 bytes @ 0xE0001000) (0004ms, 0383ms total)
T3F44 000:643 JLINK_IsHalted() -- CPU_ReadMem(2 bytes @ 0x20000000)  returns TRUE (0005ms, 0388ms total)
T3F44 000:648 JLINK_ReadReg(R15 (PC))  returns 0x20000000 (0000ms, 0383ms total)
T3F44 000:648 JLINK_ClrBPEx(BPHandle = 0x00000003)  returns 0x00 (0000ms, 0383ms total)
T3F44 000:648 JLINK_ReadReg(R0)  returns 0x00000000 (0000ms, 0383ms total)
T3F44 000:654 JLINK_WriteMem(0x20000000, 0x0164 Bytes, ...) - Data: 00 BE 0A E0 0D 78 2D 06 68 40 08 24 40 00 00 D3 ... -- CPU_WriteMem(356 bytes @ 0x20000000)  returns 0x164 (0004ms, 0387ms total)
T3F44 000:659 JLINK_WriteReg(R0, 0x08000000)  returns 0x00 (0000ms, 0388ms total)
T3F44 000:659 JLINK_WriteReg(R1, 0x00B71B00)  returns 0x00 (0000ms, 0388ms total)
T3F44 000:659 JLINK_WriteReg(R2, 0x00000002)  returns 0x00 (0000ms, 0388ms total)
T3F44 000:659 JLINK_WriteReg(R3, 0x00000000)  returns 0x00 (0000ms, 0388ms total)
T3F44 000:659 JLINK_WriteReg(R4, 0x00000000)  returns 0x00 (0000ms, 0388ms total)
T3F44 000:659 JLINK_WriteReg(R5, 0x00000000)  returns 0x00 (0000ms, 0388ms total)
T3F44 000:659 JLINK_WriteReg(R6, 0x00000000)  returns 0x00 (0000ms, 0388ms total)
T3F44 000:659 JLINK_WriteReg(R7, 0x00000000)  returns 0x00 (0000ms, 0388ms total)
T3F44 000:659 JLINK_WriteReg(R8, 0x00000000)  returns 0x00 (0000ms, 0388ms total)
T3F44 000:659 JLINK_WriteReg(R9, 0x20000160)  returns 0x00 (0000ms, 0388ms total)
T3F44 000:659 JLINK_WriteReg(R10, 0x00000000)  returns 0x00 (0000ms, 0388ms total)
T3F44 000:659 JLINK_WriteReg(R11, 0x00000000)  returns 0x00 (0000ms, 0388ms total)
T3F44 000:659 JLINK_WriteReg(R12, 0x00000000)  returns 0x00 (0000ms, 0388ms total)
T3F44 000:659 JLINK_WriteReg(R13 (SP), 0x20001000)  returns 0x00 (0000ms, 0388ms total)
T3F44 000:659 JLINK_WriteReg(R14, 0x20000001)  returns 0x00 (0000ms, 0388ms total)
T3F44 000:659 JLINK_WriteReg(R15 (PC), 0x20000038)  returns 0x00 (0000ms, 0388ms total)
T3F44 000:659 JLINK_WriteReg(XPSR, 0x01000000)  returns 0x00 (0000ms, 0388ms total)
T3F44 000:659 JLINK_WriteReg(MSP, 0x20001000)  returns 0x00 (0000ms, 0388ms total)
T3F44 000:659 JLINK_WriteReg(PSP, 0x20001000)  returns 0x00 (0000ms, 0388ms total)
T3F44 000:659 JLINK_WriteReg(CFBP, 0x00000000)  returns 0x00 (0000ms, 0388ms total)
T3F44 000:659 JLINK_SetBPEx(Addr = 0x20000000, Type = 0xFFFFFFF2) -- CPU_ReadMem(2 bytes @ 0x20000000)  returns 0x00000004 (0002ms, 0390ms total)
T3F44 000:661 JLINK_Go() -- CPU_WriteMem(2 bytes @ 0x20000000) -- CPU_ReadMem(4 bytes @ 0xE0001000) (0003ms, 0393ms total)
T3F44 000:664 JLINK_IsHalted() -- CPU_ReadMem(2 bytes @ 0x20000000)  returns TRUE (0005ms, 0398ms total)
T3F44 000:669 JLINK_ReadReg(R15 (PC))  returns 0x20000000 (0000ms, 0393ms total)
T3F44 000:669 JLINK_ClrBPEx(BPHandle = 0x00000004)  returns 0x00 (0000ms, 0393ms total)
T3F44 000:669 JLINK_ReadReg(R0)  returns 0x00000000 (0000ms, 0393ms total)
T3F44 000:669 JLINK_WriteMem(0x20000164, 0x0400 Bytes, ...) - Data: B0 58 00 20 C5 02 00 08 E1 35 00 08 B9 2A 00 08 ... -- CPU_WriteMem(1024 bytes @ 0x20000164)  returns 0x400 (0013ms, 0406ms total)
T3F44 000:682 JLINK_WriteReg(R0, 0x08000000)  returns 0x00 (0000ms, 0406ms total)
T3F44 000:682 JLINK_WriteReg(R1, 0x00000400)  returns 0x00 (0000ms, 0406ms total)
T3F44 000:682 JLINK_WriteReg(R2, 0x20000164)  returns 0x00 (0001ms, 0407ms total)
T3F44 000:683 JLINK_WriteReg(R3, 0x00000000)  returns 0x00 (0000ms, 0407ms total)
T3F44 000:683 JLINK_WriteReg(R4, 0x00000000)  returns 0x00 (0000ms, 0407ms total)
T3F44 000:683 JLINK_WriteReg(R5, 0x00000000)  returns 0x00 (0000ms, 0407ms total)
T3F44 000:683 JLINK_WriteReg(R6, 0x00000000)  returns 0x00 (0000ms, 0407ms total)
T3F44 000:683 JLINK_WriteReg(R7, 0x00000000)  returns 0x00 (0000ms, 0407ms total)
T3F44 000:683 JLINK_WriteReg(R8, 0x00000000)  returns 0x00 (0000ms, 0407ms total)
T3F44 000:683 JLINK_WriteReg(R9, 0x20000160)  returns 0x00 (0000ms, 0407ms total)
T3F44 000:683 JLINK_WriteReg(R10, 0x00000000)  returns 0x00 (0000ms, 0407ms total)
T3F44 000:683 JLINK_WriteReg(R11, 0x00000000)  returns 0x00 (0000ms, 0407ms total)
T3F44 000:683 JLINK_WriteReg(R12, 0x00000000)  returns 0x00 (0000ms, 0407ms total)
T3F44 000:683 JLINK_WriteReg(R13 (SP), 0x20001000)  returns 0x00 (0000ms, 0407ms total)
T3F44 000:683 JLINK_WriteReg(R14, 0x20000001)  returns 0x00 (0000ms, 0407ms total)
T3F44 000:683 JLINK_WriteReg(R15 (PC), 0x200000F4)  returns 0x00 (0000ms, 0407ms total)
T3F44 000:683 JLINK_WriteReg(XPSR, 0x01000000)  returns 0x00 (0000ms, 0407ms total)
T3F44 000:683 JLINK_WriteReg(MSP, 0x20001000)  returns 0x00 (0000ms, 0407ms total)
T3F44 000:683 JLINK_WriteReg(PSP, 0x20001000)  returns 0x00 (0000ms, 0407ms total)
T3F44 000:683 JLINK_WriteReg(CFBP, 0x00000000)  returns 0x00 (0000ms, 0407ms total)
T3F44 000:683 JLINK_SetBPEx(Addr = 0x20000000, Type = 0xFFFFFFF2)  returns 0x00000005 (0000ms, 0407ms total)
T3F44 000:683 JLINK_Go() -- CPU_ReadMem(4 bytes @ 0xE0001000) (0004ms, 0411ms total)
T3F44 000:687 JLINK_IsHalted()  returns FALSE (0000ms, 0411ms total)
T3F44 000:693 JLINK_IsHalted()  returns FALSE (0000ms, 0411ms total)
T3F44 000:696 JLINK_IsHalted()  returns FALSE (0000ms, 0411ms total)
T3F44 000:698 JLINK_IsHalted()  returns FALSE (0000ms, 0411ms total)
T3F44 000:700 JLINK_IsHalted()  returns FALSE (0000ms, 0411ms total)
T3F44 000:702 JLINK_IsHalted()  returns FALSE (0000ms, 0411ms total)
T3F44 000:704 JLINK_IsHalted()  returns FALSE (0000ms, 0411ms total)
T3F44 000:706 JLINK_IsHalted()  returns FALSE (0000ms, 0411ms total)
T3F44 000:708 JLINK_IsHalted()  returns FALSE (0000ms, 0411ms total)
T3F44 000:710 JLINK_IsHalted()  returns FALSE (0000ms, 0411ms total)
T3F44 000:712 JLINK_IsHalted()  returns FALSE (0000ms, 0411ms total)
T3F44 000:714 JLINK_IsHalted()  returns FALSE (0000ms, 0411ms total)
T3F44 000:716 JLINK_IsHalted()  returns FALSE (0000ms, 0411ms total)
T3F44 000:718 JLINK_IsHalted() -- CPU_ReadMem(2 bytes @ 0x20000000)  returns TRUE (0004ms, 0415ms total)
T3F44 000:722 JLINK_ReadReg(R15 (PC))  returns 0x20000000 (0000ms, 0411ms total)
T3F44 000:722 JLINK_ClrBPEx(BPHandle = 0x00000005)  returns 0x00 (0000ms, 0411ms total)
T3F44 000:722 JLINK_ReadReg(R0)  returns 0x00000000 (0000ms, 0411ms total)
T3F44 000:723 JLINK_WriteMem(0x20000164, 0x0400 Bytes, ...) - Data: 01 2B 24 BF 00 F8 01 3B 00 F8 01 CB 48 BF 00 F8 ... -- CPU_WriteMem(1024 bytes @ 0x20000164)  returns 0x400 (0013ms, 0424ms total)
T3F44 000:736 JLINK_WriteReg(R0, 0x08000400)  returns 0x00 (0000ms, 0424ms total)
T3F44 000:736 JLINK_WriteReg(R1, 0x00000400)  returns 0x00 (0000ms, 0424ms total)
T3F44 000:736 JLINK_WriteReg(R2, 0x20000164)  returns 0x00 (0000ms, 0424ms total)
T3F44 000:736 JLINK_WriteReg(R3, 0x00000000)  returns 0x00 (0000ms, 0424ms total)
T3F44 000:736 JLINK_WriteReg(R4, 0x00000000)  returns 0x00 (0000ms, 0424ms total)
T3F44 000:736 JLINK_WriteReg(R5, 0x00000000)  returns 0x00 (0000ms, 0424ms total)
T3F44 000:736 JLINK_WriteReg(R6, 0x00000000)  returns 0x00 (0000ms, 0424ms total)
T3F44 000:736 JLINK_WriteReg(R7, 0x00000000)  returns 0x00 (0000ms, 0424ms total)
T3F44 000:736 JLINK_WriteReg(R8, 0x00000000)  returns 0x00 (0000ms, 0424ms total)
T3F44 000:736 JLINK_WriteReg(R9, 0x20000160)  returns 0x00 (0000ms, 0424ms total)
T3F44 000:736 JLINK_WriteReg(R10, 0x00000000)  returns 0x00 (0000ms, 0424ms total)
T3F44 000:737 JLINK_WriteReg(R11, 0x00000000)  returns 0x00 (0000ms, 0425ms total)
T3F44 000:737 JLINK_WriteReg(R12, 0x00000000)  returns 0x00 (0000ms, 0425ms total)
T3F44 000:737 JLINK_WriteReg(R13 (SP), 0x20001000)  returns 0x00 (0000ms, 0425ms total)
T3F44 000:737 JLINK_WriteReg(R14, 0x20000001)  returns 0x00 (0000ms, 0425ms total)
T3F44 000:737 JLINK_WriteReg(R15 (PC), 0x200000F4)  returns 0x00 (0000ms, 0425ms total)
T3F44 000:737 JLINK_WriteReg(XPSR, 0x01000000)  returns 0x00 (0000ms, 0425ms total)
T3F44 000:737 JLINK_WriteReg(MSP, 0x20001000)  returns 0x00 (0000ms, 0425ms total)
T3F44 000:737 JLINK_WriteReg(PSP, 0x20001000)  returns 0x00 (0000ms, 0425ms total)
T3F44 000:737 JLINK_WriteReg(CFBP, 0x00000000)  returns 0x00 (0000ms, 0425ms total)
T3F44 000:737 JLINK_SetBPEx(Addr = 0x20000000, Type = 0xFFFFFFF2)  returns 0x00000006 (0000ms, 0425ms total)
T3F44 000:737 JLINK_Go() -- CPU_ReadMem(4 bytes @ 0xE0001000) (0003ms, 0428ms total)
T3F44 000:740 JLINK_IsHalted()  returns FALSE (0001ms, 0429ms total)
T3F44 000:743 JLINK_IsHalted()  returns FALSE (0000ms, 0428ms total)
T3F44 000:745 JLINK_IsHalted()  returns FALSE (0000ms, 0428ms total)
T3F44 000:747 JLINK_IsHalted()  returns FALSE (0000ms, 0428ms total)
T3F44 000:749 JLINK_IsHalted()  returns FALSE (0000ms, 0428ms total)
T3F44 000:751 JLINK_IsHalted()  returns FALSE (0001ms, 0429ms total)
T3F44 000:753 JLINK_IsHalted()  returns FALSE (0001ms, 0429ms total)
T3F44 000:755 JLINK_IsHalted()  returns FALSE (0000ms, 0428ms total)
T3F44 000:757 JLINK_IsHalted()  returns FALSE (0001ms, 0429ms total)
T3F44 000:760 JLINK_IsHalted()  returns FALSE (0000ms, 0428ms total)
T3F44 000:762 JLINK_IsHalted()  returns FALSE (0000ms, 0428ms total)
T3F44 000:764 JLINK_IsHalted()  returns FALSE (0000ms, 0428ms total)
T3F44 000:766 JLINK_IsHalted()  returns FALSE (0000ms, 0428ms total)
T3F44 000:768 JLINK_IsHalted()  returns FALSE (0000ms, 0428ms total)
T3F44 000:770 JLINK_IsHalted()  returns FALSE (0000ms, 0428ms total)
T3F44 000:772 JLINK_IsHalted() -- CPU_ReadMem(2 bytes @ 0x20000000)  returns TRUE (0004ms, 0432ms total)
T3F44 000:776 JLINK_ReadReg(R15 (PC))  returns 0x20000000 (0001ms, 0429ms total)
T3F44 000:777 JLINK_ClrBPEx(BPHandle = 0x00000006)  returns 0x00 (0000ms, 0429ms total)
T3F44 000:777 JLINK_ReadReg(R0)  returns 0x00000000 (0000ms, 0429ms total)
T3F44 000:777 JLINK_WriteMem(0x20000164, 0x0400 Bytes, ...) - Data: 09 FE 04 46 06 F0 D4 FD 83 46 18 49 58 46 07 F0 ... -- CPU_WriteMem(1024 bytes @ 0x20000164)  returns 0x400 (0012ms, 0441ms total)
T3F44 000:789 JLINK_WriteReg(R0, 0x08000800)  returns 0x00 (0000ms, 0441ms total)
T3F44 000:789 JLINK_WriteReg(R1, 0x00000400)  returns 0x00 (0000ms, 0441ms total)
T3F44 000:790 JLINK_WriteReg(R2, 0x20000164)  returns 0x00 (0000ms, 0442ms total)
T3F44 000:790 JLINK_WriteReg(R3, 0x00000000)  returns 0x00 (0000ms, 0442ms total)
T3F44 000:790 JLINK_WriteReg(R4, 0x00000000)  returns 0x00 (0000ms, 0442ms total)
T3F44 000:790 JLINK_WriteReg(R5, 0x00000000)  returns 0x00 (0000ms, 0442ms total)
T3F44 000:790 JLINK_WriteReg(R6, 0x00000000)  returns 0x00 (0000ms, 0442ms total)
T3F44 000:790 JLINK_WriteReg(R7, 0x00000000)  returns 0x00 (0000ms, 0442ms total)
T3F44 000:790 JLINK_WriteReg(R8, 0x00000000)  returns 0x00 (0000ms, 0442ms total)
T3F44 000:790 JLINK_WriteReg(R9, 0x20000160)  returns 0x00 (0000ms, 0442ms total)
T3F44 000:790 JLINK_WriteReg(R10, 0x00000000)  returns 0x00 (0000ms, 0442ms total)
T3F44 000:790 JLINK_WriteReg(R11, 0x00000000)  returns 0x00 (0000ms, 0442ms total)
T3F44 000:790 JLINK_WriteReg(R12, 0x00000000)  returns 0x00 (0000ms, 0442ms total)
T3F44 000:790 JLINK_WriteReg(R13 (SP), 0x20001000)  returns 0x00 (0000ms, 0442ms total)
T3F44 000:790 JLINK_WriteReg(R14, 0x20000001)  returns 0x00 (0000ms, 0442ms total)
T3F44 000:790 JLINK_WriteReg(R15 (PC), 0x200000F4)  returns 0x00 (0000ms, 0442ms total)
T3F44 000:790 JLINK_WriteReg(XPSR, 0x01000000)  returns 0x00 (0000ms, 0442ms total)
T3F44 000:790 JLINK_WriteReg(MSP, 0x20001000)  returns 0x00 (0000ms, 0442ms total)
T3F44 000:790 JLINK_WriteReg(PSP, 0x20001000)  returns 0x00 (0000ms, 0442ms total)
T3F44 000:790 JLINK_WriteReg(CFBP, 0x00000000)  returns 0x00 (0000ms, 0442ms total)
T3F44 000:790 JLINK_SetBPEx(Addr = 0x20000000, Type = 0xFFFFFFF2)  returns 0x00000007 (0000ms, 0442ms total)
T3F44 000:790 JLINK_Go() -- CPU_ReadMem(4 bytes @ 0xE0001000) (0003ms, 0445ms total)
T3F44 000:793 JLINK_IsHalted()  returns FALSE (0001ms, 0446ms total)
T3F44 000:798 JLINK_IsHalted()  returns FALSE (0001ms, 0446ms total)
T3F44 000:801 JLINK_IsHalted()  returns FALSE (0000ms, 0445ms total)
T3F44 000:803 JLINK_IsHalted()  returns FALSE (0000ms, 0445ms total)
T3F44 000:806 JLINK_IsHalted()  returns FALSE (0000ms, 0445ms total)
T3F44 000:808 JLINK_IsHalted()  returns FALSE (0000ms, 0445ms total)
T3F44 000:810 JLINK_IsHalted()  returns FALSE (0000ms, 0445ms total)
T3F44 000:811 JLINK_IsHalted()  returns FALSE (0001ms, 0446ms total)
T3F44 000:814 JLINK_IsHalted()  returns FALSE (0000ms, 0445ms total)
T3F44 000:816 JLINK_IsHalted()  returns FALSE (0000ms, 0445ms total)
T3F44 000:818 JLINK_IsHalted()  returns FALSE (0000ms, 0445ms total)
T3F44 000:820 JLINK_IsHalted()  returns FALSE (0001ms, 0446ms total)
T3F44 000:823 JLINK_IsHalted()  returns FALSE (0000ms, 0445ms total)
T3F44 000:825 JLINK_IsHalted() -- CPU_ReadMem(2 bytes @ 0x20000000)  returns TRUE (0004ms, 0449ms total)
T3F44 000:829 JLINK_ReadReg(R15 (PC))  returns 0x20000000 (0000ms, 0445ms total)
T3F44 000:829 JLINK_ClrBPEx(BPHandle = 0x00000007)  returns 0x00 (0000ms, 0445ms total)
T3F44 000:829 JLINK_ReadReg(R0)  returns 0x00000000 (0000ms, 0445ms total)
T3F44 000:829 JLINK_WriteMem(0x20000164, 0x0400 Bytes, ...) - Data: 01 21 88 06 03 F0 9A F8 4F F4 80 50 AD F8 20 00 ... -- CPU_WriteMem(1024 bytes @ 0x20000164)  returns 0x400 (0013ms, 0458ms total)
T3F44 000:842 JLINK_WriteReg(R0, 0x08000C00)  returns 0x00 (0000ms, 0458ms total)
T3F44 000:842 JLINK_WriteReg(R1, 0x00000400)  returns 0x00 (0000ms, 0458ms total)
T3F44 000:842 JLINK_WriteReg(R2, 0x20000164)  returns 0x00 (0000ms, 0458ms total)
T3F44 000:842 JLINK_WriteReg(R3, 0x00000000)  returns 0x00 (0000ms, 0458ms total)
T3F44 000:842 JLINK_WriteReg(R4, 0x00000000)  returns 0x00 (0000ms, 0458ms total)
T3F44 000:842 JLINK_WriteReg(R5, 0x00000000)  returns 0x00 (0000ms, 0458ms total)
T3F44 000:842 JLINK_WriteReg(R6, 0x00000000)  returns 0x00 (0000ms, 0458ms total)
T3F44 000:842 JLINK_WriteReg(R7, 0x00000000)  returns 0x00 (0000ms, 0458ms total)
T3F44 000:842 JLINK_WriteReg(R8, 0x00000000)  returns 0x00 (0000ms, 0458ms total)
T3F44 000:842 JLINK_WriteReg(R9, 0x20000160)  returns 0x00 (0000ms, 0458ms total)
T3F44 000:842 JLINK_WriteReg(R10, 0x00000000)  returns 0x00 (0000ms, 0458ms total)
T3F44 000:842 JLINK_WriteReg(R11, 0x00000000)  returns 0x00 (0000ms, 0458ms total)
T3F44 000:842 JLINK_WriteReg(R12, 0x00000000)  returns 0x00 (0000ms, 0458ms total)
T3F44 000:842 JLINK_WriteReg(R13 (SP), 0x20001000)  returns 0x00 (0000ms, 0458ms total)
T3F44 000:842 JLINK_WriteReg(R14, 0x20000001)  returns 0x00 (0000ms, 0458ms total)
T3F44 000:842 JLINK_WriteReg(R15 (PC), 0x200000F4)  returns 0x00 (0001ms, 0459ms total)
T3F44 000:843 JLINK_WriteReg(XPSR, 0x01000000)  returns 0x00 (0000ms, 0459ms total)
T3F44 000:843 JLINK_WriteReg(MSP, 0x20001000)  returns 0x00 (0000ms, 0459ms total)
T3F44 000:843 JLINK_WriteReg(PSP, 0x20001000)  returns 0x00 (0000ms, 0459ms total)
T3F44 000:843 JLINK_WriteReg(CFBP, 0x00000000)  returns 0x00 (0000ms, 0459ms total)
T3F44 000:843 JLINK_SetBPEx(Addr = 0x20000000, Type = 0xFFFFFFF2)  returns 0x00000008 (0000ms, 0459ms total)
T3F44 000:843 JLINK_Go() -- CPU_ReadMem(4 bytes @ 0xE0001000) (0003ms, 0462ms total)
T3F44 000:846 JLINK_IsHalted()  returns FALSE (0001ms, 0463ms total)
T3F44 000:849 JLINK_IsHalted()  returns FALSE (0001ms, 0463ms total)
T3F44 000:852 JLINK_IsHalted()  returns FALSE (0000ms, 0462ms total)
T3F44 000:854 JLINK_IsHalted()  returns FALSE (0001ms, 0463ms total)
T3F44 000:856 JLINK_IsHalted()  returns FALSE (0001ms, 0463ms total)
T3F44 000:859 JLINK_IsHalted()  returns FALSE (0000ms, 0462ms total)
T3F44 000:861 JLINK_IsHalted()  returns FALSE (0001ms, 0463ms total)
T3F44 000:863 JLINK_IsHalted()  returns FALSE (0000ms, 0462ms total)
T3F44 000:865 JLINK_IsHalted()  returns FALSE (0000ms, 0462ms total)
T3F44 000:867 JLINK_IsHalted()  returns FALSE (0001ms, 0463ms total)
T3F44 000:870 JLINK_IsHalted()  returns FALSE (0000ms, 0462ms total)
T3F44 000:872 JLINK_IsHalted()  returns FALSE (0000ms, 0462ms total)
T3F44 000:874 JLINK_IsHalted()  returns FALSE (0001ms, 0463ms total)
T3F44 000:876 JLINK_IsHalted() -- CPU_ReadMem(2 bytes @ 0x20000000)  returns TRUE (0005ms, 0467ms total)
T3F44 000:881 JLINK_ReadReg(R15 (PC))  returns 0x20000000 (0000ms, 0462ms total)
T3F44 000:881 JLINK_ClrBPEx(BPHandle = 0x00000008)  returns 0x00 (0000ms, 0462ms total)
T3F44 000:881 JLINK_ReadReg(R0)  returns 0x00000000 (0000ms, 0462ms total)
T3F44 000:883 JLINK_WriteMem(0x20000164, 0x0400 Bytes, ...) - Data: 06 46 0F E0 0F E0 A0 69 70 21 01 F0 E3 F8 06 46 ... -- CPU_WriteMem(1024 bytes @ 0x20000164)  returns 0x400 (0012ms, 0474ms total)
T3F44 000:895 JLINK_WriteReg(R0, 0x08001000)  returns 0x00 (0000ms, 0474ms total)
T3F44 000:895 JLINK_WriteReg(R1, 0x00000400)  returns 0x00 (0000ms, 0474ms total)
T3F44 000:895 JLINK_WriteReg(R2, 0x20000164)  returns 0x00 (0000ms, 0474ms total)
T3F44 000:895 JLINK_WriteReg(R3, 0x00000000)  returns 0x00 (0001ms, 0475ms total)
T3F44 000:896 JLINK_WriteReg(R4, 0x00000000)  returns 0x00 (0000ms, 0475ms total)
T3F44 000:896 JLINK_WriteReg(R5, 0x00000000)  returns 0x00 (0000ms, 0475ms total)
T3F44 000:896 JLINK_WriteReg(R6, 0x00000000)  returns 0x00 (0000ms, 0475ms total)
T3F44 000:896 JLINK_WriteReg(R7, 0x00000000)  returns 0x00 (0000ms, 0475ms total)
T3F44 000:896 JLINK_WriteReg(R8, 0x00000000)  returns 0x00 (0000ms, 0475ms total)
T3F44 000:896 JLINK_WriteReg(R9, 0x20000160)  returns 0x00 (0000ms, 0475ms total)
T3F44 000:896 JLINK_WriteReg(R10, 0x00000000)  returns 0x00 (0000ms, 0475ms total)
T3F44 000:896 JLINK_WriteReg(R11, 0x00000000)  returns 0x00 (0000ms, 0475ms total)
T3F44 000:896 JLINK_WriteReg(R12, 0x00000000)  returns 0x00 (0000ms, 0475ms total)
T3F44 000:896 JLINK_WriteReg(R13 (SP), 0x20001000)  returns 0x00 (0000ms, 0475ms total)
T3F44 000:896 JLINK_WriteReg(R14, 0x20000001)  returns 0x00 (0000ms, 0475ms total)
T3F44 000:896 JLINK_WriteReg(R15 (PC), 0x200000F4)  returns 0x00 (0000ms, 0475ms total)
T3F44 000:896 JLINK_WriteReg(XPSR, 0x01000000)  returns 0x00 (0000ms, 0475ms total)
T3F44 000:896 JLINK_WriteReg(MSP, 0x20001000)  returns 0x00 (0001ms, 0476ms total)
T3F44 000:897 JLINK_WriteReg(PSP, 0x20001000)  returns 0x00 (0000ms, 0476ms total)
T3F44 000:897 JLINK_WriteReg(CFBP, 0x00000000)  returns 0x00 (0000ms, 0476ms total)
T3F44 000:897 JLINK_SetBPEx(Addr = 0x20000000, Type = 0xFFFFFFF2)  returns 0x00000009 (0000ms, 0476ms total)
T3F44 000:897 JLINK_Go() -- CPU_ReadMem(4 bytes @ 0xE0001000) (0003ms, 0479ms total)
T3F44 000:900 JLINK_IsHalted()  returns FALSE (0000ms, 0479ms total)
T3F44 000:903 JLINK_IsHalted()  returns FALSE (0000ms, 0479ms total)
T3F44 000:905 JLINK_IsHalted()  returns FALSE (0000ms, 0479ms total)
T3F44 000:907 JLINK_IsHalted()  returns FALSE (0000ms, 0479ms total)
T3F44 000:909 JLINK_IsHalted()  returns FALSE (0000ms, 0479ms total)
T3F44 000:911 JLINK_IsHalted()  returns FALSE (0000ms, 0479ms total)
T3F44 000:913 JLINK_IsHalted()  returns FALSE (0000ms, 0479ms total)
T3F44 000:915 JLINK_IsHalted()  returns FALSE (0000ms, 0479ms total)
T3F44 000:917 JLINK_IsHalted()  returns FALSE (0000ms, 0479ms total)
T3F44 000:919 JLINK_IsHalted()  returns FALSE (0000ms, 0479ms total)
T3F44 000:921 JLINK_IsHalted()  returns FALSE (0000ms, 0479ms total)
T3F44 000:923 JLINK_IsHalted()  returns FALSE (0000ms, 0479ms total)
T3F44 000:925 JLINK_IsHalted()  returns FALSE (0000ms, 0479ms total)
T3F44 000:927 JLINK_IsHalted()  returns FALSE (0000ms, 0479ms total)
T3F44 000:929 JLINK_IsHalted()  returns FALSE (0000ms, 0479ms total)
T3F44 000:931 JLINK_IsHalted() -- CPU_ReadMem(2 bytes @ 0x20000000)  returns TRUE (0006ms, 0485ms total)
T3F44 000:938 JLINK_ReadReg(R15 (PC))  returns 0x20000000 (0000ms, 0479ms total)
T3F44 000:938 JLINK_ClrBPEx(BPHandle = 0x00000009)  returns 0x00 (0000ms, 0479ms total)
T3F44 000:938 JLINK_ReadReg(R0)  returns 0x00000000 (0000ms, 0479ms total)
T3F44 000:938 JLINK_WriteMem(0x20000164, 0x0400 Bytes, ...) - Data: 41 EA 00 20 01 B2 16 48 41 81 25 E0 9D F8 0E 10 ... -- CPU_WriteMem(1024 bytes @ 0x20000164)  returns 0x400 (0014ms, 0493ms total)
T3F44 000:952 JLINK_WriteReg(R0, 0x08001400)  returns 0x00 (0000ms, 0493ms total)
T3F44 000:952 JLINK_WriteReg(R1, 0x00000400)  returns 0x00 (0000ms, 0493ms total)
T3F44 000:952 JLINK_WriteReg(R2, 0x20000164)  returns 0x00 (0000ms, 0493ms total)
T3F44 000:952 JLINK_WriteReg(R3, 0x00000000)  returns 0x00 (0000ms, 0493ms total)
T3F44 000:952 JLINK_WriteReg(R4, 0x00000000)  returns 0x00 (0000ms, 0493ms total)
T3F44 000:952 JLINK_WriteReg(R5, 0x00000000)  returns 0x00 (0000ms, 0493ms total)
T3F44 000:952 JLINK_WriteReg(R6, 0x00000000)  returns 0x00 (0000ms, 0493ms total)
T3F44 000:952 JLINK_WriteReg(R7, 0x00000000)  returns 0x00 (0000ms, 0493ms total)
T3F44 000:952 JLINK_WriteReg(R8, 0x00000000)  returns 0x00 (0000ms, 0493ms total)
T3F44 000:952 JLINK_WriteReg(R9, 0x20000160)  returns 0x00 (0000ms, 0493ms total)
T3F44 000:952 JLINK_WriteReg(R10, 0x00000000)  returns 0x00 (0000ms, 0493ms total)
T3F44 000:952 JLINK_WriteReg(R11, 0x00000000)  returns 0x00 (0000ms, 0493ms total)
T3F44 000:952 JLINK_WriteReg(R12, 0x00000000)  returns 0x00 (0000ms, 0493ms total)
T3F44 000:952 JLINK_WriteReg(R13 (SP), 0x20001000)  returns 0x00 (0000ms, 0493ms total)
T3F44 000:952 JLINK_WriteReg(R14, 0x20000001)  returns 0x00 (0000ms, 0493ms total)
T3F44 000:952 JLINK_WriteReg(R15 (PC), 0x200000F4)  returns 0x00 (0000ms, 0493ms total)
T3F44 000:952 JLINK_WriteReg(XPSR, 0x01000000)  returns 0x00 (0000ms, 0493ms total)
T3F44 000:952 JLINK_WriteReg(MSP, 0x20001000)  returns 0x00 (0000ms, 0493ms total)
T3F44 000:952 JLINK_WriteReg(PSP, 0x20001000)  returns 0x00 (0000ms, 0493ms total)
T3F44 000:952 JLINK_WriteReg(CFBP, 0x00000000)  returns 0x00 (0000ms, 0493ms total)
T3F44 000:952 JLINK_SetBPEx(Addr = 0x20000000, Type = 0xFFFFFFF2)  returns 0x0000000A (0000ms, 0493ms total)
T3F44 000:952 JLINK_Go() -- CPU_ReadMem(4 bytes @ 0xE0001000) (0007ms, 0500ms total)
T3F44 000:959 JLINK_IsHalted()  returns FALSE (0002ms, 0502ms total)
T3F44 000:963 JLINK_IsHalted()  returns FALSE (0001ms, 0501ms total)
T3F44 000:967 JLINK_IsHalted()  returns FALSE (0002ms, 0502ms total)
T3F44 000:970 JLINK_IsHalted()  returns FALSE (0002ms, 0502ms total)
T3F44 000:973 JLINK_IsHalted()  returns FALSE (0002ms, 0502ms total)
T3F44 000:976 JLINK_IsHalted()  returns FALSE (0001ms, 0501ms total)
T3F44 000:978 JLINK_IsHalted()  returns FALSE (0001ms, 0501ms total)
T3F44 000:981 JLINK_IsHalted()  returns FALSE (0001ms, 0501ms total)
T3F44 000:985 JLINK_IsHalted()  returns FALSE (0001ms, 0501ms total)
T3F44 000:988 JLINK_IsHalted()  returns FALSE (0001ms, 0501ms total)
T3F44 000:991 JLINK_IsHalted() -- CPU_ReadMem(2 bytes @ 0x20000000)  returns TRUE (0005ms, 0505ms total)
T3F44 000:996 JLINK_ReadReg(R15 (PC))  returns 0x20000000 (0000ms, 0500ms total)
T3F44 000:996 JLINK_ClrBPEx(BPHandle = 0x0000000A)  returns 0x00 (0000ms, 0500ms total)
T3F44 000:996 JLINK_ReadReg(R0)  returns 0x00000000 (0000ms, 0500ms total)
T3F44 000:996 JLINK_WriteMem(0x20000164, 0x0400 Bytes, ...) - Data: 24 48 C1 68 28 46 06 F0 53 FD 1F 49 08 60 21 4A ... -- CPU_WriteMem(1024 bytes @ 0x20000164)  returns 0x400 (0013ms, 0513ms total)
T3F44 001:009 JLINK_WriteReg(R0, 0x08001800)  returns 0x00 (0000ms, 0513ms total)
T3F44 001:009 JLINK_WriteReg(R1, 0x00000400)  returns 0x00 (0000ms, 0513ms total)
T3F44 001:009 JLINK_WriteReg(R2, 0x20000164)  returns 0x00 (0000ms, 0513ms total)
T3F44 001:009 JLINK_WriteReg(R3, 0x00000000)  returns 0x00 (0000ms, 0513ms total)
T3F44 001:009 JLINK_WriteReg(R4, 0x00000000)  returns 0x00 (0000ms, 0513ms total)
T3F44 001:009 JLINK_WriteReg(R5, 0x00000000)  returns 0x00 (0000ms, 0513ms total)
T3F44 001:009 JLINK_WriteReg(R6, 0x00000000)  returns 0x00 (0000ms, 0513ms total)
T3F44 001:009 JLINK_WriteReg(R7, 0x00000000)  returns 0x00 (0000ms, 0513ms total)
T3F44 001:009 JLINK_WriteReg(R8, 0x00000000)  returns 0x00 (0000ms, 0513ms total)
T3F44 001:009 JLINK_WriteReg(R9, 0x20000160)  returns 0x00 (0000ms, 0513ms total)
T3F44 001:009 JLINK_WriteReg(R10, 0x00000000)  returns 0x00 (0000ms, 0513ms total)
T3F44 001:009 JLINK_WriteReg(R11, 0x00000000)  returns 0x00 (0000ms, 0513ms total)
T3F44 001:009 JLINK_WriteReg(R12, 0x00000000)  returns 0x00 (0000ms, 0513ms total)
T3F44 001:009 JLINK_WriteReg(R13 (SP), 0x20001000)  returns 0x00 (0000ms, 0513ms total)
T3F44 001:009 JLINK_WriteReg(R14, 0x20000001)  returns 0x00 (0000ms, 0513ms total)
T3F44 001:009 JLINK_WriteReg(R15 (PC), 0x200000F4)  returns 0x00 (0000ms, 0513ms total)
T3F44 001:009 JLINK_WriteReg(XPSR, 0x01000000)  returns 0x00 (0000ms, 0513ms total)
T3F44 001:009 JLINK_WriteReg(MSP, 0x20001000)  returns 0x00 (0000ms, 0513ms total)
T3F44 001:009 JLINK_WriteReg(PSP, 0x20001000)  returns 0x00 (0000ms, 0513ms total)
T3F44 001:009 JLINK_WriteReg(CFBP, 0x00000000)  returns 0x00 (0001ms, 0514ms total)
T3F44 001:010 JLINK_SetBPEx(Addr = 0x20000000, Type = 0xFFFFFFF2)  returns 0x0000000B (0000ms, 0514ms total)
T3F44 001:010 JLINK_Go() -- CPU_ReadMem(4 bytes @ 0xE0001000) (0005ms, 0519ms total)
T3F44 001:015 JLINK_IsHalted()  returns FALSE (0002ms, 0521ms total)
T3F44 001:020 JLINK_IsHalted()  returns FALSE (0002ms, 0521ms total)
T3F44 001:023 JLINK_IsHalted()  returns FALSE (0001ms, 0520ms total)
T3F44 001:026 JLINK_IsHalted()  returns FALSE (0001ms, 0520ms total)
T3F44 001:029 JLINK_IsHalted()  returns FALSE (0001ms, 0520ms total)
T3F44 001:033 JLINK_IsHalted()  returns FALSE (0001ms, 0520ms total)
T3F44 001:036 JLINK_IsHalted()  returns FALSE (0002ms, 0521ms total)
T3F44 001:040 JLINK_IsHalted()  returns FALSE (0001ms, 0520ms total)
T3F44 001:045 JLINK_IsHalted() -- CPU_ReadMem(2 bytes @ 0x20000000)  returns TRUE (0008ms, 0527ms total)
T3F44 001:053 JLINK_ReadReg(R15 (PC))  returns 0x20000000 (0000ms, 0519ms total)
T3F44 001:053 JLINK_ClrBPEx(BPHandle = 0x0000000B)  returns 0x00 (0000ms, 0519ms total)
T3F44 001:053 JLINK_ReadReg(R0)  returns 0x00000000 (0000ms, 0519ms total)
T3F44 001:053 JLINK_WriteMem(0x20000164, 0x0400 Bytes, ...) - Data: 30 08 00 20 50 00 00 20 00 20 28 21 00 EB 40 02 ... -- CPU_WriteMem(1024 bytes @ 0x20000164)  returns 0x400 (0014ms, 0533ms total)
T3F44 001:067 JLINK_WriteReg(R0, 0x08001C00)  returns 0x00 (0000ms, 0533ms total)
T3F44 001:067 JLINK_WriteReg(R1, 0x00000400)  returns 0x00 (0000ms, 0533ms total)
T3F44 001:067 JLINK_WriteReg(R2, 0x20000164)  returns 0x00 (0000ms, 0533ms total)
T3F44 001:067 JLINK_WriteReg(R3, 0x00000000)  returns 0x00 (0000ms, 0533ms total)
T3F44 001:067 JLINK_WriteReg(R4, 0x00000000)  returns 0x00 (0000ms, 0533ms total)
T3F44 001:067 JLINK_WriteReg(R5, 0x00000000)  returns 0x00 (0000ms, 0533ms total)
T3F44 001:067 JLINK_WriteReg(R6, 0x00000000)  returns 0x00 (0000ms, 0533ms total)
T3F44 001:067 JLINK_WriteReg(R7, 0x00000000)  returns 0x00 (0000ms, 0533ms total)
T3F44 001:067 JLINK_WriteReg(R8, 0x00000000)  returns 0x00 (0000ms, 0533ms total)
T3F44 001:067 JLINK_WriteReg(R9, 0x20000160)  returns 0x00 (0000ms, 0533ms total)
T3F44 001:067 JLINK_WriteReg(R10, 0x00000000)  returns 0x00 (0000ms, 0533ms total)
T3F44 001:067 JLINK_WriteReg(R11, 0x00000000)  returns 0x00 (0000ms, 0533ms total)
T3F44 001:067 JLINK_WriteReg(R12, 0x00000000)  returns 0x00 (0000ms, 0533ms total)
T3F44 001:067 JLINK_WriteReg(R13 (SP), 0x20001000)  returns 0x00 (0000ms, 0533ms total)
T3F44 001:067 JLINK_WriteReg(R14, 0x20000001)  returns 0x00 (0000ms, 0533ms total)
T3F44 001:067 JLINK_WriteReg(R15 (PC), 0x200000F4)  returns 0x00 (0000ms, 0533ms total)
T3F44 001:067 JLINK_WriteReg(XPSR, 0x01000000)  returns 0x00 (0000ms, 0533ms total)
T3F44 001:067 JLINK_WriteReg(MSP, 0x20001000)  returns 0x00 (0000ms, 0533ms total)
T3F44 001:067 JLINK_WriteReg(PSP, 0x20001000)  returns 0x00 (0000ms, 0533ms total)
T3F44 001:067 JLINK_WriteReg(CFBP, 0x00000000)  returns 0x00 (0000ms, 0533ms total)
T3F44 001:067 JLINK_SetBPEx(Addr = 0x20000000, Type = 0xFFFFFFF2)  returns 0x0000000C (0000ms, 0533ms total)
T3F44 001:067 JLINK_Go() -- CPU_ReadMem(4 bytes @ 0xE0001000) (0006ms, 0539ms total)
T3F44 001:073 JLINK_IsHalted()  returns FALSE (0001ms, 0540ms total)
T3F44 001:077 JLINK_IsHalted()  returns FALSE (0002ms, 0541ms total)
T3F44 001:080 JLINK_IsHalted()  returns FALSE (0001ms, 0540ms total)
T3F44 001:083 JLINK_IsHalted()  returns FALSE (0002ms, 0541ms total)
T3F44 001:087 JLINK_IsHalted()  returns FALSE (0001ms, 0540ms total)
T3F44 001:090 JLINK_IsHalted()  returns FALSE (0001ms, 0540ms total)
T3F44 001:093 JLINK_IsHalted()  returns FALSE (0001ms, 0540ms total)
T3F44 001:095 JLINK_IsHalted()  returns FALSE (0002ms, 0541ms total)
T3F44 001:099 JLINK_IsHalted()  returns FALSE (0002ms, 0541ms total)
T3F44 001:102 JLINK_IsHalted()  returns FALSE (0001ms, 0540ms total)
T3F44 001:109 JLINK_IsHalted() -- CPU_ReadMem(2 bytes @ 0x20000000)  returns TRUE (0004ms, 0543ms total)
T3F44 001:113 JLINK_ReadReg(R15 (PC))  returns 0x20000000 (0000ms, 0539ms total)
T3F44 001:113 JLINK_ClrBPEx(BPHandle = 0x0000000C)  returns 0x00 (0000ms, 0539ms total)
T3F44 001:113 JLINK_ReadReg(R0)  returns 0x00000000 (0000ms, 0539ms total)
T3F44 001:113 JLINK_WriteMem(0x20000164, 0x0400 Bytes, ...) - Data: 00 BF 4F 48 00 78 40 B9 50 48 01 68 42 48 00 68 ... -- CPU_WriteMem(1024 bytes @ 0x20000164)  returns 0x400 (0014ms, 0553ms total)
T3F44 001:129 JLINK_WriteReg(R0, 0x08002000)  returns 0x00 (0000ms, 0553ms total)
T3F44 001:129 JLINK_WriteReg(R1, 0x00000400)  returns 0x00 (0000ms, 0553ms total)
T3F44 001:129 JLINK_WriteReg(R2, 0x20000164)  returns 0x00 (0000ms, 0553ms total)
T3F44 001:129 JLINK_WriteReg(R3, 0x00000000)  returns 0x00 (0000ms, 0553ms total)
T3F44 001:129 JLINK_WriteReg(R4, 0x00000000)  returns 0x00 (0000ms, 0553ms total)
T3F44 001:129 JLINK_WriteReg(R5, 0x00000000)  returns 0x00 (0000ms, 0553ms total)
T3F44 001:129 JLINK_WriteReg(R6, 0x00000000)  returns 0x00 (0000ms, 0553ms total)
T3F44 001:129 JLINK_WriteReg(R7, 0x00000000)  returns 0x00 (0000ms, 0553ms total)
T3F44 001:129 JLINK_WriteReg(R8, 0x00000000)  returns 0x00 (0000ms, 0553ms total)
T3F44 001:129 JLINK_WriteReg(R9, 0x20000160)  returns 0x00 (0000ms, 0553ms total)
T3F44 001:129 JLINK_WriteReg(R10, 0x00000000)  returns 0x00 (0000ms, 0553ms total)
T3F44 001:129 JLINK_WriteReg(R11, 0x00000000)  returns 0x00 (0000ms, 0553ms total)
T3F44 001:129 JLINK_WriteReg(R12, 0x00000000)  returns 0x00 (0000ms, 0553ms total)
T3F44 001:129 JLINK_WriteReg(R13 (SP), 0x20001000)  returns 0x00 (0000ms, 0553ms total)
T3F44 001:129 JLINK_WriteReg(R14, 0x20000001)  returns 0x00 (0000ms, 0553ms total)
T3F44 001:129 JLINK_WriteReg(R15 (PC), 0x200000F4)  returns 0x00 (0000ms, 0553ms total)
T3F44 001:129 JLINK_WriteReg(XPSR, 0x01000000)  returns 0x00 (0000ms, 0553ms total)
T3F44 001:129 JLINK_WriteReg(MSP, 0x20001000)  returns 0x00 (0000ms, 0553ms total)
T3F44 001:129 JLINK_WriteReg(PSP, 0x20001000)  returns 0x00 (0000ms, 0553ms total)
T3F44 001:129 JLINK_WriteReg(CFBP, 0x00000000)  returns 0x00 (0000ms, 0553ms total)
T3F44 001:129 JLINK_SetBPEx(Addr = 0x20000000, Type = 0xFFFFFFF2)  returns 0x0000000D (0000ms, 0553ms total)
T3F44 001:129 JLINK_Go() -- CPU_ReadMem(4 bytes @ 0xE0001000) (0005ms, 0558ms total)
T3F44 001:134 JLINK_IsHalted()  returns FALSE (0001ms, 0559ms total)
T3F44 001:137 JLINK_IsHalted()  returns FALSE (0002ms, 0560ms total)
T3F44 001:140 JLINK_IsHalted()  returns FALSE (0002ms, 0560ms total)
T3F44 001:143 JLINK_IsHalted()  returns FALSE (0002ms, 0560ms total)
T3F44 001:147 JLINK_IsHalted()  returns FALSE (0000ms, 0558ms total)
T3F44 001:150 JLINK_IsHalted()  returns FALSE (0000ms, 0558ms total)
T3F44 001:152 JLINK_IsHalted()  returns FALSE (0000ms, 0558ms total)
T3F44 001:154 JLINK_IsHalted()  returns FALSE (0001ms, 0559ms total)
T3F44 001:156 JLINK_IsHalted()  returns FALSE (0000ms, 0558ms total)
T3F44 001:158 JLINK_IsHalted()  returns FALSE (0000ms, 0558ms total)
T3F44 001:160 JLINK_IsHalted()  returns FALSE (0000ms, 0558ms total)
T3F44 001:163 JLINK_IsHalted() -- CPU_ReadMem(2 bytes @ 0x20000000)  returns TRUE (0004ms, 0562ms total)
T3F44 001:167 JLINK_ReadReg(R15 (PC))  returns 0x20000000 (0000ms, 0558ms total)
T3F44 001:167 JLINK_ClrBPEx(BPHandle = 0x0000000D)  returns 0x00 (0000ms, 0558ms total)
T3F44 001:167 JLINK_ReadReg(R0)  returns 0x00000000 (0000ms, 0558ms total)
T3F44 001:169 JLINK_WriteMem(0x20000164, 0x0400 Bytes, ...) - Data: 00 02 00 10 B8 04 00 20 10 B5 07 48 00 F0 F4 F8 ... -- CPU_WriteMem(1024 bytes @ 0x20000164)  returns 0x400 (0012ms, 0570ms total)
T3F44 001:182 JLINK_WriteReg(R0, 0x08002400)  returns 0x00 (0000ms, 0570ms total)
T3F44 001:182 JLINK_WriteReg(R1, 0x00000400)  returns 0x00 (0000ms, 0570ms total)
T3F44 001:182 JLINK_WriteReg(R2, 0x20000164)  returns 0x00 (0000ms, 0570ms total)
T3F44 001:182 JLINK_WriteReg(R3, 0x00000000)  returns 0x00 (0000ms, 0570ms total)
T3F44 001:182 JLINK_WriteReg(R4, 0x00000000)  returns 0x00 (0000ms, 0570ms total)
T3F44 001:182 JLINK_WriteReg(R5, 0x00000000)  returns 0x00 (0000ms, 0570ms total)
T3F44 001:182 JLINK_WriteReg(R6, 0x00000000)  returns 0x00 (0000ms, 0570ms total)
T3F44 001:182 JLINK_WriteReg(R7, 0x00000000)  returns 0x00 (0000ms, 0570ms total)
T3F44 001:182 JLINK_WriteReg(R8, 0x00000000)  returns 0x00 (0000ms, 0570ms total)
T3F44 001:182 JLINK_WriteReg(R9, 0x20000160)  returns 0x00 (0000ms, 0570ms total)
T3F44 001:182 JLINK_WriteReg(R10, 0x00000000)  returns 0x00 (0000ms, 0570ms total)
T3F44 001:182 JLINK_WriteReg(R11, 0x00000000)  returns 0x00 (0000ms, 0570ms total)
T3F44 001:182 JLINK_WriteReg(R12, 0x00000000)  returns 0x00 (0000ms, 0570ms total)
T3F44 001:182 JLINK_WriteReg(R13 (SP), 0x20001000)  returns 0x00 (0000ms, 0570ms total)
T3F44 001:182 JLINK_WriteReg(R14, 0x20000001)  returns 0x00 (0000ms, 0570ms total)
T3F44 001:182 JLINK_WriteReg(R15 (PC), 0x200000F4)  returns 0x00 (0000ms, 0570ms total)
T3F44 001:182 JLINK_WriteReg(XPSR, 0x01000000)  returns 0x00 (0001ms, 0571ms total)
T3F44 001:183 JLINK_WriteReg(MSP, 0x20001000)  returns 0x00 (0000ms, 0571ms total)
T3F44 001:183 JLINK_WriteReg(PSP, 0x20001000)  returns 0x00 (0000ms, 0571ms total)
T3F44 001:183 JLINK_WriteReg(CFBP, 0x00000000)  returns 0x00 (0000ms, 0571ms total)
T3F44 001:183 JLINK_SetBPEx(Addr = 0x20000000, Type = 0xFFFFFFF2)  returns 0x0000000E (0000ms, 0571ms total)
T3F44 001:183 JLINK_Go() -- CPU_ReadMem(4 bytes @ 0xE0001000) (0003ms, 0574ms total)
T3F44 001:186 JLINK_IsHalted()  returns FALSE (0000ms, 0574ms total)
T3F44 001:188 JLINK_IsHalted()  returns FALSE (0000ms, 0574ms total)
T3F44 001:190 JLINK_IsHalted()  returns FALSE (0000ms, 0574ms total)
T3F44 001:192 JLINK_IsHalted()  returns FALSE (0000ms, 0574ms total)
T3F44 001:194 JLINK_IsHalted()  returns FALSE (0000ms, 0574ms total)
T3F44 001:196 JLINK_IsHalted()  returns FALSE (0000ms, 0574ms total)
T3F44 001:198 JLINK_IsHalted()  returns FALSE (0001ms, 0575ms total)
